Circuit: * C:\users\user\My Documents\PCB\50W_LED_boost\sim_ltspice\Draft1.asc

Direct Newton iteration for .op point succeeded.
Semiconductor Device Operating Points:
                        --- Diodes ---
Name:      d2          d1
Model:   dflz33      dflz33
Id:      -1.57e-3    -1.06e-3
Vd:      -3.24e+1    -3.23e+1
Req:      1.32e+2     1.94e+2
CAP:       NaN         NaN

                        --- Bipolar Transistors ---
Name:       q7          q6          q4          q2          q5
Model:    2n2222      2n2222      2n2222      2n2222      2n3055
Ib:        2.06e-8     5.48e-6     5.54e-6     4.49e-6     1.46e-3
Ic:        5.46e-6     1.45e-3     1.46e-3     1.15e-3     9.70e-2
Vbe:       5.13e-1     6.58e-1     6.58e-1     6.53e-1     3.97e-1
Vbc:      -3.24e+1    -3.29e+1    -3.23e+1    -2.82e+1    -3.36e+1
Vce:       3.29e+1     3.36e+1     3.30e+1     2.88e+1     3.40e+1
BetaDC:    2.65e+2     2.65e+2     2.64e+2     2.56e+2     6.65e+1
Gm:        2.11e-4     5.59e-2     5.62e-2     4.42e-2     3.44e+0
Rpi:       1.25e+6     4.72e+3     4.67e+3     5.76e+3     1.77e+1
Rx:        1.00e+1     1.00e+1     1.00e+1     1.00e+1     8.10e-1
Ro:        2.43e+7     9.16e+4     9.07e+4     1.12e+5     0.00e+0
Cbe:        NaN         NaN         NaN         NaN        3.43e-7
Cbc:        NaN         NaN         NaN         NaN         NaN
Cjs:       0.00e+0     0.00e+0     0.00e+0     0.00e+0     0.00e+0
BetaAC:    2.65e+2     2.64e+2     2.63e+2     2.55e+2     6.11e+1
Cbx:       0.00e+0     0.00e+0     0.00e+0     0.00e+0     0.00e+0
Ft:        8.93e+5     1.39e+8     1.40e+8     1.19e+8     1.59e+6

Name:       q3          q1
Model:    2n3055      2n3055
Ib:        1.47e-3     1.15e-3
Ic:        9.75e-2     7.80e-2
Vbe:       3.98e-1     3.91e-1
Vbc:      -3.30e+1    -2.88e+1
Vce:       3.34e+1     2.92e+1
BetaDC:    6.65e+1     6.77e+1
Gm:        3.46e+0     2.81e+0
Rpi:       1.76e+1     2.25e+1
Rx:        8.10e-1     8.10e-1
Ro:        0.00e+0     0.00e+0
Cbe:       3.45e-7     2.80e-7
Cbc:        NaN         NaN
Cjs:       0.00e+0     0.00e+0
BetaAC:    6.11e+1     6.32e+1
Cbx:       0.00e+0     0.00e+0
Ft:        1.59e+6     1.59e+6



Date: Sun Oct 30 00:42:35 2022
Total elapsed time: 0.721 seconds.

tnom = 27
temp = 27
method = trap
totiter = 44
traniter = 0
tranpoints = 0
accept = 0
rejected = 0
matrix size = 33
fillins = 28
solver = Normal
Matrix Compiler1: 4.53 KB object code size
Matrix Compiler2:     262 opcodes
